#Digilent WaveForms Network Analyzer - Bode
#Device Name: Discovery2
#Serial Number: SN:210321A374C1
#Date Time: 2018-11-14 19:14:39.734

Frequency (Hz),Channel 1 Magnitude (dB),Channel 2 Magnitude (dB),Channel 2 Phase (°)
50.000000000000007,0.048215238755437761,24.825254637929067,-31.186638860560876
50.370996815380387,0.048119892930620967,24.82534472725192,-31.440788909796737
50.744746403501189,0.051706384881218342,24.822341530448504,-31.675021018819152
51.121269189760874,0.051345979212981743,24.823071704373113,-31.889771073754844
51.500585751112958,0.050617276709724886,24.822033221193436,-32.147341651755795
51.882716817190669,0.052012496225213534,24.820673063870071,-32.398404653234266
52.267683271439864,0.051997721785345605,24.822135100338411,-32.639883152570988
52.655506152260159,0.051336525501413918,24.823046026749207,-32.865421130005643
53.046206654154744,0.046797640585385283,24.823905992161915,-33.118968944201285
53.439806128888762,0.0509684000988814,24.820876433407811,-33.357307708679159
53.836326086655987,0.050966231692210547,24.820722746784469,-33.616318656421143
54.235788197254557,0.04839708909832599,24.823169897778815,-33.868030948903154
54.63821429127109,0.052880042701482811,24.819973797131553,-34.093264565033138
55.043626361273702,0.050156217745936552,24.821074949980385,-34.334761257826003
55.452046563014108,0.051980016048476282,24.818961931615483,-34.610956171407736
55.863497216638159,0.05067952030410109,24.823244384208142,-34.886966061652132
56.278000807905798,0.048751071345136773,24.822605525774883,-35.148845894683021
56.695579989419947,0.051302730368810029,24.821853351905375,-35.426896544536262
57.116257581864318,0.051145569395298643,24.819470320997464,-35.666736948395169
57.540056575250624,0.048736510497581938,24.821887221371775,-35.904465825271998
57.967000130175123,0.04874230687672898,24.820942122905862,-36.200838830649388
58.397111579084104,0.050300191496831112,24.82198391048972,-36.464769003470494
58.83041442754913,0.050077385373296021,24.820986350442809,-36.709319117060446
59.266932355551702,0.052874355543696509,24.819927022185073,-37.035059617939439
59.706689218777186,0.048831016626346105,24.822134540734105,-37.263250063851132
60.149709049918599,0.047172465943265331,24.824148966984612,-37.546186700276721
60.596016059990127,0.043111702354833817,24.82546645296862,-37.823265729649748
61.04563463964999,0.048489058178824075,24.823244494236846,-38.100646752489638
61.498589360533671,0.04729337699123827,24.824981302051995,-38.390506502422738
61.954904976596509,0.052439247394729188,24.819385715080116,-38.699905049316115
62.414606425466737,0.048116194063211874,24.824250554317622,-38.953578334222811
62.877718829808067,0.04493804459563825,24.825875999735089,-39.240631896444427
63.344267498692901,0.050679858006847801,24.821769158736537,-39.538617554039106
63.814277928985256,0.043864675645378028,24.827451062177403,-39.835716629482718
64.287775806734274,0.050307488480063417,24.821022787888083,-40.127584332252638
64.764787008577983,0.049182055704395586,24.823188105833395,-40.428860294179131
65.245337603157409,0.048541589563188853,24.82406528694451,-40.720705805255761
65.729453852541155,0.044124840411075915,24.826863190467154,-41.052836949490796
66.217162213660842,0.047672330116902251,24.824069124144511,-41.343789054887097
66.708489339756696,0.044530672665312937,24.826362056037237,-41.639205802635502
67.203462081834402,0.048821527577250473,24.823066392820841,-41.942740057942061
67.702107490132335,0.046741563326979624,24.825597019795403,-42.253099952809265
68.204452815599893,0.049510560380941232,24.821986811078673,-42.567901734839438
68.710525511386862,0.04298643570383516,24.827991029662932,-42.907171526253762
69.220353234343605,0.047130833699275738,24.82441974277835,-43.212558444672482
69.73396384653249,0.042068801074389955,24.828111147686084,-43.553474920517289
70.251385416750779,0.0468801115268839,24.823897989943532,-43.883824940935511
70.772646222064267,0.046552619446559133,24.825805704358284,-44.195297374933432
71.297774749352783,0.043202626640698794,24.827304607431984,-44.541897757816173
71.826799696867127,0.047607212705593101,24.82042003002158,-44.931868908170344
72.359749975797186,0.04745323371690377,24.822693083945147,-45.253893456527351
72.896654711851951,0.048593774551568242,24.822616652251959,-45.577317007646798
73.437543246851561,0.046653039327892727,24.822648954744913,-45.921652921965347
73.982445140330384,0.045885768081491106,24.821449544401876,-46.274272286281359
74.531390171152665,0.046445428145392376,24.821762263016684,-46.601827239199395
75.084408339140069,0.045755051849203719,24.822754025071923,-46.963787276071571
75.641529866710854,0.043259806124110678,24.824770799240767,-47.308425549034666
76.202785200531835,0.04695930346338812,24.824930136158425,-47.64815112890733
76.768205013182083,0.04413448962719721,24.826493591839075,-48.02307011411574
77.337820204829228,0.044571132614437299,24.823289950906432,-48.351432825394056
77.911661904918262,0.045992028760044545,24.825290005092803,-48.740936002796559
78.489761473872619,0.043873072190902307,24.826119914823469,-49.091344747875951
79.072150504808008,0.043465348497950036,24.826524062523259,-49.443889284396391
79.658860825259254,0.045089654167477414,24.826330985041821,-49.818401738594957
80.249924498919256,0.04326288312060507,24.827849215346976,-50.191447497253648
80.845373827391512,0.043991272824026748,24.826994660944855,-50.558302046819563
81.445241351955474,0.047589123888669878,24.826483753214951,-50.944767321246502
82.049559855344725,0.042936079687723713,24.828410420656791,-51.322477423391774
82.658362363538572,0.045162615666889366,24.827467261190044,-51.696237164730178
83.271682147567162,0.045390406787549249,24.827645846640102,-52.089684669768531
83.889552725329466,0.044808333246847826,24.827357774672244,-52.483170448611759
84.512007863425055,0.045713191586953861,24.826665559031177,-52.867717645368771
85.139081578999708,0.045118980300609179,24.828911680891636,-53.257528479498774
85.770808141604036,0.046037423150872087,24.827459577555175,-53.653056911686804
86.40722207506677,0.044386885046450983,24.829226493624734,-54.058883266098704
87.048358159381067,0.046494591735701862,24.829407114382938,-54.438527513422088
87.694251432605441,0.041738626981684811,24.833492097860898,-54.843124120010756
88.344937192778701,0.039275532745317553,24.834894868350865,-55.264104946215824
89.000450999848667,0.040552819080290167,24.833395264865704,-55.687057691603499
89.660828677615896,0.039993347025335808,24.83314599971855,-56.07611655524444
90.326106315691078,0.045828744074261948,24.830993800088898,-56.511190068748192
90.996320271467738,0.044207347998015789,24.833386720254552,-56.941324673308387
91.671507172108647,0.041596142842655344,24.834612337188698,-57.357858213648186
92.351703916548075,0.039053828585068277,24.838555928152601,-57.782472297997415
93.036947677507854,0.042105492965332496,24.834200746916633,-58.214337932642536
93.727275903529176,0.043979146925449263,24.835880502772877,-58.632909832426506
94.422726321018871,0.043966147004260922,24.836640775483829,-59.084928146822151
95.123336936311546,0.040911521983196641,24.838305531169219,-59.520583772822093
95.829146037745971,0.039346238888817033,24.840021384598224,-59.956357161497522
96.540192197758529,0.044008080037635802,24.839256215631707,-60.39878338402437
97.256514274990053,0.041338172880147829,24.839710080776506,-60.870272907977508
97.978151416410356,0.045681528899405965,24.839578413881227,-61.311329391864518
98.705143059457242,0.038938340647120269,24.841962631475219,-61.772666420567745
99.437528934191704,0.043789239467742894,24.838881331985149,-62.224288977402807
100.17534906546925,0.044116827006046654,24.841377203764054,-62.716281622854495
100.91864377512738,0.043031730269333997,24.841459515511396,-63.153125712610688
101.66745368418897,0.035922032731754205,24.848236003209635,-63.643164196767337
102.42181971508224,0.039233516862905375,24.846368136021091,-64.113193953797492
103.18178309387741,0.037168603456354178,24.847409826563403,-64.597128289692876
103.94738535253937,0.033251731172248888,24.851954036029905,-65.074111764108721
104.71866833119751,0.037672291356140697,24.850401802575849,-65.554123068474553
105.49567418043247,0.043790063076058316,24.846883840085784,-66.041830983828987
106.27844536357935,0.036342323635569732,24.851690368876817,-66.559971176794818
107.06702465904866,0.039917797741587088,24.851949258156271,-67.050099988399822
107.86145516266384,0.038957130547045256,24.85274469828169,-67.549945450849691
108.66178029001664,0.036344107849614136,24.857096808220142,-68.017571255282974
109.4680437788398,0.040701667905324646,24.856022592887687,-68.538723969258257
110.28028969139719,0.038217107884248765,24.856870715887741,-69.062449983172712
111.09856241689181,0.036126046083988853,24.858906337160729,-69.560801748703355
111.92290667389192,0.040150784823531412,24.85782875775708,-70.097993004462126
112.75336751277452,0.038214882289588227,24.857960849522236,-70.617435900548259
113.5899903181875,0.035558171531842486,24.862874570283306,-71.145469877257682
114.43282081153022,0.036638942974269326,24.864548562747363,-71.679375458240628
115.28190505345165,0.040795769641217464,24.864192126623731,-72.21387471868826
116.13728944636786,0.034290601626354528,24.867405391784661,-72.781183671782273
116.99902073699809,0.037176290467172197,24.86934708258643,-73.317903997465308
117.86714601891909,0.037376225965462861,24.868891523758137,-73.863785798785187
118.74171273513888,0.03772318439257015,24.871730423215794,-74.41558824181422
119.62276868068984,0.034846596736408497,24.875301993969927,-74.975708226660984
120.51036200524018,0.043433859564560695,24.870247764174231,-75.518378715523923
121.40454121572579,0.036315062226893437,24.873855175938139,-76.09083782706108
122.3053551790008,0.035862369665485345,24.875539753310374,-76.67299764927013
123.21285312450824,0.037330639239633617,24.879864784279611,-77.23974841330039
124.12708464697072,0.036272694900488636,24.879289142443266,-77.799711432014632
125.04809970910024,0.038253936647384079,24.88020475120528,-78.416597628449807
125.97594864432907,0.041060301978587198,24.879672587606851,-79.001383996674733
126.91068215956042,0.040317031215652249,24.881535198249804,-79.604973482536252
127.85235133793934,0.036022278087380663,24.885948202548818,-80.181994834214493
128.8010076416447,0.036261849745292868,24.888277429590513,-80.786234111625021
129.75670291470132,0.03577429663655976,24.890778657618135,-81.398744335377643
130.71948938581363,0.037501882470974281,24.893083147860029,-82.023857853756837
131.68941967121921,0.030542917706026684,24.89743528444545,-82.618201714558325
132.66654677756554,0.027976211999103731,24.90052801756481,-83.255463897663361
133.65092410480526,0.036095383094734888,24.898003857060303,-83.875480192955919
134.64260544911579,0.037467859245757615,24.900355814685486,-84.487255216229585
135.64164500583851,0.036042803690285181,24.901962748715366,-85.139749316954877
136.64809737244093,0.033871674424525516,24.904699939532517,-85.780597950349559
137.66201755150016,0.034311604953883301,24.90859748575101,-86.431641276396988
138.68346095370913,0.031693583394716292,24.909388673523949,-87.069643735976314
139.71248340090415,0.036352167446602926,24.910781344250751,-87.742075471970011
140.74914112911654,0.035689316745986438,24.915302995283426,-88.395429692927408
141.79349079164496,0.033684290534062869,24.917051315492454,-89.065125777851392
142.8455894621523,0.033749156571916621,24.922370421444025,-89.748990934163771
143.90549463778407,0.032268875732273168,24.923533391607823,-90.42702376434508
144.97326424231127,0.031922719966118437,24.928399167957789,-91.114751784056367
146.04895662929513,0.034906963703372838,24.926776941211912,-91.762470770909417
147.13263058527704,0.030877647657142109,24.930877045771481,-92.488971255803179
148.22434533299048,0.030117710797804828,24.933266090215795,-93.186268799139725
149.32416053459806,0.033767213058090717,24.933949480532508,-93.880672547089361
150.4321362949517,0.035762942038329068,24.937358420981912,-94.603014156214698
151.54833316487765,0.031761613647943276,24.943749990988039,-95.329282825579782
152.67281214448499,0.035650658713809028,24.943166776630804,-96.042245536124071
153.8056346865005,0.029369600416536461,24.946726882608708,-96.775013355409925
154.9468626996254,0.030915980074578391,24.950499811332172,-97.49413619938943
156.09655855192014,0.029767251622728766,24.956372342420913,-98.241622267200853
157.25478507421215,0.032044336194806573,24.958718666188709,-98.981077232590792
158.42160556352931,0.036133757965045608,24.959167941440619,-99.754708543378229
159.59708378655955,0.030898150507311213,24.96432899794118,-100.52252182280361
160.78128398313572,0.03232135097388468,24.964609385046867,-101.27781535488555
161.97427086974596,0.027530294332994636,24.973168215765021,-102.04106720749581
163.17610964307059,0.034029986834228018,24.974159004635538,-102.82194692417539
164.38686598354536,0.026804543381397643,24.982185488779368,-103.60169659814288
165.60660605895046,0.028912807068284349,24.986199135883194,-104.39032346127559
166.83539652802688,0.032218405134428196,24.985094431825573,-105.18663059899227
168.07330454411928,0.033776041390885664,24.990915152591697,-105.9694596598253
169.3203977588457,0.030191051891675875,24.994332311624035,-106.80183989659761
170.57674432579512,0.029766140269333555,24.999265878024609,-107.62435335946299
171.84241290425157,0.025465759702389849,25.006114843541475,-108.45212214314421
173.11747266294662,0.02622025452683328,25.00756344958203,-109.28211316295591
174.40199328383969,0.031970935407577825,25.012307206561267,-110.10167609180823
175.69604496592558,0.031672570211869283,25.014180861337671,-110.95225510359532
176.99969842907123,0.029707154904423317,25.022153860389615,-111.81611949807342
178.31302491788068,0.033577274723271031,25.024817889740394,-112.67427310410807
179.63609620558822,0.03214722834910122,25.031226536860672,-113.52702334838091
180.96898459798084,0.029708988382158082,25.036552617521441,-114.41509774363919
182.31176293735027,0.032995509398463088,25.039276382365511,-115.29069128759505
183.66450460647306,0.028102666342822224,25.044583696462269,-116.1686573066861
185.02728353262128,0.028868427825864896,25.053452376238958,-117.09830832278408
186.40017419160301,0.030082776416971279,25.056410934930888,-117.98796625945459
187.78325161183164,0.03355096972223464,25.056905830479444,-118.88193563736894
189.17659137842679,0.027937385253172575,25.067565471509049,-119.79649466067841
190.58026963734503,0.032608290635123702,25.069422949675399,-120.73431792392324
191.99436309954072,0.032124755266000289,25.076352615231642,-121.65937137400175
193.418949045159,0.022621886557330294,25.085491432190853,-122.58769032665123
194.85410532775836,0.026732762389019525,25.089835038416872,-123.53998936683749
196.29991037856621,0.034333075812343808,25.093113909453599,-124.51404553663258
197.75644321076413,0.030486691773352389,25.102013433176381,-125.46086484980503
199.22378342380711,0.028150662481062703,25.108633496838166,-126.43315289154077
200.70201120777222,0.037989618854515086,25.107644816780009,-127.43450408300674
202.19120734774268,0.030704899960700121,25.120331630409964,-128.39838670358012
203.69145322822109,0.031015890308360203,25.125617194421864,-129.42777337140151
205.2028308375786,0.03023667916795969,25.134210067552836,-130.42419520732807
206.72542277253402,0.033214599678772765,25.139004372014529,-131.45106709683813
208.25931224266955,0.033776444476532046,25.143482621558451,-132.48923992414774
209.80458307497622,0.033867685925546002,25.152193593995037,-133.47904382855316
211.36131971843673,0.034661397434500266,25.160667185585801,-134.53456987801638
212.92960724863926,0.033060149763390306,25.168331762619903,-135.60156389996368
214.50953137242811,0.029832490810375797,25.176486140972006,-136.6757984122936
216.10117843258615,0.029869749799938186,25.184304905771413,-137.74571238726946
217.70463541255498,0.028784379772722669,25.193326207469159,-138.84319052056037
219.31998994118692,0.032520879205634845,25.196647335629933,-139.92608825870289
220.94733029753576,0.034673542890123157,25.2074131211889,-141.0340917657708
222.58674541567922,0.03554065638827722,25.212635772438187,-142.13570078217936
224.23832488958129,0.038785141851872457,25.222353284734858,-143.26816880511146
225.90215897798646,0.030122341892079661,25.230598748887108,-144.37291974877604
227.57833860935423,0.032126776751693967,25.24052688239086,-145.56906368814259
229.26695538682662,0.032573288720628528,25.246143529907403,-146.69343004154206
230.96810159323601,0.038045407410771503,25.255754394395062,-147.86143259746103
232.68187019614678,0.037580724156491066,25.26470508867699,-149.05414978300547
234.40835485293712,0.038407368990794943,25.273183305585114,-150.2363920426688
236.14764991591699,0.040387724041064652,25.286497992492055,-151.41292601019765
237.89985043748428,0.038012089908048559,25.296381536364457,-152.6132981383661
239.66505217531969,0.037173465353113846,25.302314818200689,-153.83996863777776
241.44335159762002,0.040712486172917735,25.311978211895742,-155.06015644702188
243.23484588836959,0.046042632303593324,25.321863180113354,-156.31737937882292
245.039632952652,0.047219917921264218,25.331618575236035,-157.56696060676035
246.85781142200014,0.039219137399787968,25.347432705860324,-158.83232937168106
248.6894806597868,0.047362709085653133,25.354449261544325,-160.11073868419098
250.53474076665432,0.046667410209893782,25.367009229575928,-161.40472170609303
252.39369258598583,0.050238983062162242,25.374356905481509,-162.71548897759243
254.26643770941575,0.042717590748190988,25.388104189918845,-164.03938907206705
256.15307848238183,0.042751217373299046,25.399769376727338,-165.33639386432003
258.05371800971858,0.045174512237245529,25.414449651298078,-166.68840847824885
259.968460161292,0.046724887573274185,25.421648823344146,-168.04169564341686
261.8974095776756,0.050469974725943993,25.437013313607068,-169.43067122114417
263.84067167586926,0.040382220024399465,25.450801616271352,-170.79180087501291
265.79835265506057,0.047971652422130084,25.461758425632567,-172.1856970855562
267.77055950242817,0.047790982891264586,25.476083069018777,-173.59033824210343
269.75739999898855,0.047256813849797616,25.487329578268611,-175.05388288948669
271.75898272548682,0.044159885496892266,25.505214498187744,-176.46359777672993
273.77541706833011,0.053357912979277576,25.517348315435491,-177.9166482086377
275.80681322556575,0.049795050624856729,25.529525576517621,-179.37906152881936
277.85328221290359,0.052500582918352003,25.544075981223241,179.14683662616886
279.91493586978299,0.056631081047707997,25.551880554327408,177.62414084425021
281.9918868654849,0.058606927936149272,25.571844626912483,176.11198192642757
284.08424870528876,0.05905169128798856,25.580889033995959,174.5768520493676
286.19213573667651,0.056715787618618792,25.601548972584762,173.04656189556451
288.31566315558064,0.05980664435248223,25.611299807390324,171.46463866109235
290.4549470126808,0.065119930065919485,25.628610436470712,169.89777685932728
292.61010421974424,0.061935888074077093,25.646075211785174,168.31016931888533
294.78125255601719,0.067233458076320626,25.658258101074441,166.68455361933241
296.96851067465946,0.064315015400981376,25.676726167748956,165.05434022233837
299.17199810923063,0.066588700111632371,25.692760520350223,163.39763051398137
301.39183528022062,0.072520205653188188,25.707816969789498,161.72117249430983
303.62814350163291,0.073841218782489088,25.723589876705137,160.03482373942484
305.88104498761192,0.070827351369472172,25.745528789685093,158.30601446231881
308.15066285912451,0.068067679025539479,25.762291514350302,156.6176398782172
310.4371211506861,0.072776475630660864,25.777172735701647,154.85527099816096
312.74054481714137,0.081741451260123055,25.793996670225763,153.09120481137927
315.06105974049086,0.084216076878644519,25.809772236165067,151.29427392768366
317.39879273677258,0.075909411340735353,25.835170765815953,149.49596847340601
